(1634827205.086527) vcan0 190#137406
(1634827205.286886) vcan0 190#439DB4
(1634827205.487244) vcan0 190#2CD30C
(1634827205.687423) vcan0 190#E143B0
(1634827205.887771) vcan0 190#3BFCE7
(1634827206.087979) vcan0 190#BC6AA7
(1634827206.288213) vcan0 190#121FC3
(1634827206.488367) vcan0 190#12CA21
(1634827206.688526) vcan0 190#63FA48
(1634827206.888614) vcan0 190#263E4B
(1634827207.089011) vcan0 190#76E7B9
(1634827207.289294) vcan0 190#9CF247
(1634827207.489624) vcan0 190#5CB5A0
(1634827207.689930) vcan0 190#6E3E87
(1634827207.890268) vcan0 190#9AE4C7
(1634827208.090440) vcan0 190#258638
(1634827208.290576) vcan0 190#9FFB0F
(1634827208.490732) vcan0 190#2AAA0B
(1634827208.690835) vcan0 190#A62B2F
(1634827208.891018) vcan0 190#F760A6
(1634827209.091374) vcan0 190#986A21
(1634827209.291531) vcan0 190#BCE964
(1634827209.491648) vcan0 190#EF5C57
(1634827209.691800) vcan0 190#912C09
(1634827209.891970) vcan0 190#234D5B
(1634827210.092166) vcan0 190#6F9B42
(1634827210.292331) vcan0 190#2AFA67
(1634827210.492476) vcan0 190#EADD20
(1634827210.692782) vcan0 190#1D50E0
(1634827210.892941) vcan0 190#DAC398
(1634827211.093175) vcan0 190#EB08A9
(1634827211.293431) vcan0 190#658D76
(1634827211.493764) vcan0 190#686DBE
(1634827211.693910) vcan0 190#56D3D5
(1634827211.894180) vcan0 190#9A253E
(1634827212.094263) vcan0 190#EFC004
(1634827212.294646) vcan0 190#0100CA
(1634827212.494922) vcan0 190#DD1944
(1634827212.695174) vcan0 190#7B5EF0
(1634827212.895376) vcan0 190#42B4C1
(1634827213.095778) vcan0 190#27B1A1
(1634827213.296160) vcan0 190#38E060
(1634827213.496363) vcan0 190#BDDD8E
(1634827213.696465) vcan0 190#D85A12
(1634827213.896735) vcan0 190#7ADA29
(1634827214.096946) vcan0 190#936217
(1634827214.297294) vcan0 190#B3687C
(1634827214.497391) vcan0 190#F1E78B
(1634827214.697476) vcan0 190#882710
(1634827214.897583) vcan0 190#2A6F28
(1634827215.097785) vcan0 190#95EFDD
(1634827215.297920) vcan0 190#55DDAD
(1634827215.498050) vcan0 190#C5DA96
(1634827215.698263) vcan0 190#864CC9
(1634827215.898438) vcan0 190#A23D3F
(1634827216.098600) vcan0 190#DFE4D2
(1634827216.298762) vcan0 190#79508F
(1634827216.498966) vcan0 190#1A9AEA
(1634827216.699227) vcan0 190#3983B5
(1634827216.899557) vcan0 190#125C8D
(1634827217.099677) vcan0 190#A613A8
(1634827217.299812) vcan0 190#1941B2
(1634827217.500141) vcan0 190#9DAE32
(1634827217.700361) vcan0 190#74525F
(1634827217.900662) vcan0 190#52E49F
(1634827218.101039) vcan0 190#482391
(1634827218.301232) vcan0 190#B8F1B4
(1634827218.501583) vcan0 190#7DC325
(1634827218.701743) vcan0 190#D0F730
(1634827218.901878) vcan0 190#BE05D3
(1634827219.101971) vcan0 190#CB107A
(1634827219.302065) vcan0 190#3B2451
(1634827219.502145) vcan0 190#B4AFD9
(1634827219.702305) vcan0 190#7B8F27
(1634827219.902476) vcan0 190#49B338
(1634827220.102610) vcan0 190#A0906E
(1634827220.302797) vcan0 190#32AA59
